
T4504 000:356 SEGGER J-Link V6.12a Log File (0001ms, 0031ms total)
T4504 000:356 DLL Compiled: Dec  2 2016 16:44:26 (0001ms, 0031ms total)
T4504 000:356 Logging started @ 2026-06-06 22:00 (0001ms, 0031ms total)
T4504 000:357 JLINK_SetWarnOutHandler(...) (0000ms, 0031ms total)
T4504 000:357 JLINK_OpenEx(...)
Firmware: J-Link ARM-OB STM32 compiled Aug 22 2012 19:52:04
Hardware: V7.00
S/N: 20090928
Feature(s): RDI,FlashDL,FlashBP,JFlash,GDBWEBSRV Webserver running on local port 19080 (0044ms, 0075ms total)
T4504 000:357   returns O.K. (0044ms, 0075ms total)
T4504 000:401 JLINK_SetErrorOutHandler(...) (0000ms, 0075ms total)
T4504 000:401 JLINK_ExecCommand("ProjectFile = "D:\HUST\Study\Robot\LangYa\Electic_control\2026_Embedded-Sentry-New-new-lidar\Sentry_Steer\Gimbal\MDK-ARM\JLinkSettings.ini"", ...).   returns 0x00 (0130ms, 0205ms total)
T4504 000:532 JLINK_ExecCommand("Device = STM32F407IGHx", ...). Device "STM32F407IG" selected.  returns 0x00 (0001ms, 0206ms total)
T4504 000:533 JLINK_ExecCommand("DisableConnectionTimeout", ...).   returns 0x01 (0000ms, 0206ms total)
T4504 000:533 JLINK_GetHardwareVersion()  returns 0x11170 (0000ms, 0206ms total)
T4504 000:533 JLINK_GetDLLVersion()  returns 61201 (0000ms, 0206ms total)
T4504 000:533 JLINK_GetFirmwareString(...) (0000ms, 0206ms total)
T4504 000:533 JLINK_GetDLLVersion()  returns 61201 (0000ms, 0206ms total)
T4504 000:533 JLINK_GetCompileDateTime() (0000ms, 0206ms total)
T4504 000:533 JLINK_GetFirmwareString(...) (0000ms, 0206ms total)
T4504 000:533 JLINK_GetHardwareVersion()  returns 0x11170 (0000ms, 0206ms total)
T4504 000:533 JLINK_TIF_Select(JLINKARM_TIF_SWD)  returns 0x00 (0002ms, 0208ms total)
T4504 000:535 JLINK_SetSpeed(5000) (0001ms, 0209ms total)
T4504 000:536 JLINK_GetId() >0x108 TIF>Found SWD-DP with ID 0x2BA01477 >0x0D TIF> >0x28 TIF> >0x0D TIF> >0x28 TIF> >0x0D TIF> >0x28 TIF> >0x0D TIF> >0x28 TIF> >0x0D TIF> >0x21 TIF> >0x0D TIF> >0x28 TIF> >0x0D TIF> >0x28 TIF> >0x0D TIF> >0x28 TIF> >0x0D TIF> >0x21 TIF> >0x0D TIF> >0x21 TIF> >0x0D TIF> >0x28 TIF> >0x0D TIF> >0x21 TIF> >0x0D TIF> >0x21 TIF> >0x0D TIF> >0x28 TIF> >0x0D TIF> >0x21 TIF> >0x0D TIF> >0x21 TIF> >0x0D TIF> >0x28 TIF> >0x0D TIF> >0x21 TIF> >0x0D TIF> >0x21 TIF> >0x0D TIF>
 >0x28 TIF> >0x0D TIF> >0x21 TIF> >0x0D TIF> >0x21 TIF> >0x0D TIF> >0x28 TIF> >0x0D TIF> >0x21 TIF> >0x0D TIF> >0x21 TIF> >0x108 TIF>Found SWD-DP with ID 0x2BA01477 >0x0D TIF> >0x28 TIF> >0x0D TIF> >0x28 TIF> >0x0D TIF> >0x28 TIF> >0x0D TIF> >0x28 TIF> >0x0D TIF> >0x21 TIF> >0x0D TIF> >0x28 TIF> >0x0D TIF> >0x28 TIF> >0x0D TIF> >0x21 TIF> >0x0D TIF> >0x21 TIF> >0x0D TIF> >0x21 TIF>AP-IDR: 0x24770011, Type: AHB-AP >0x0D TIF> >0x28 TIF> >0x0D TIF> >0x28 TIF> >0x0D TIF> >0x28 TIF> >0x0D TIF> >0x21 TIF>
 >0x0D TIF> >0x21 TIF> >0x0D TIF> >0x28 TIF> >0x0D TIF> >0x21 TIF> >0x0D TIF> >0x21 TIF>Found Cortex-M4 r0p1, Little endian. -- CPU_ReadMem(4 bytes @ 0xE000EDF0) -- CPU_ReadMem(4 bytes @ 0xE0002000)FPUnit: 6 code (BP) slots and 2 literal slots -- CPU_ReadMem(4 bytes @ 0xE000EDFC) -- CPU_ReadMem(4 bytes @ 0xE0001000) -- CPU_WriteMem(4 bytes @ 0xE0001000) -- CPU_ReadMem(4 bytes @ 0xE000ED88) -- CPU_WriteMem(4 bytes @ 0xE000ED88) -- CPU_ReadMem(4 bytes @ 0xE000ED88) -- CPU_WriteMem(4 bytes @ 0xE000ED88)
CoreSight components:ROMTbl 0 @ E00FF000 -- CPU_ReadMem(16 bytes @ 0xE00FF000) -- CPU_ReadMem(16 bytes @ 0xE000EFF0) -- CPU_ReadMem(16 bytes @ 0xE000EFE0)ROMTbl 0 [0]: FFF0F000, CID: B105E00D, PID: 000BB00C SCS -- CPU_ReadMem(16 bytes @ 0xE0001FF0) -- CPU_ReadMem(16 bytes @ 0xE0001FE0)ROMTbl 0 [1]: FFF02000, CID: B105E00D, PID: 003BB002 DWT -- CPU_ReadMem(16 bytes @ 0xE0002FF0) -- CPU_ReadMem(16 bytes @ 0xE0002FE0)ROMTbl 0 [2]: FFF03000, CID: B105E00D, PID: 002BB003 FPB
 -- CPU_ReadMem(16 bytes @ 0xE0000FF0) -- CPU_ReadMem(16 bytes @ 0xE0000FE0)ROMTbl 0 [3]: FFF01000, CID: B105E00D, PID: 003BB001 ITM -- CPU_ReadMem(16 bytes @ 0xE00FF010) -- CPU_ReadMem(16 bytes @ 0xE0040FF0) -- CPU_ReadMem(16 bytes @ 0xE0040FE0)ROMTbl 0 [4]: FFF41000, CID: B105900D, PID: 000BB9A1 TPIU -- CPU_ReadMem(16 bytes @ 0xE0041FF0) -- CPU_ReadMem(16 bytes @ 0xE0041FE0)ROMTbl 0 [5]: FFF42000, CID: B105900D, PID: 000BB925 ETM >0x0D TIF> >0x21 TIF>  returns 0x2BA01477 (0065ms, 0274ms total)
T4504 000:601 JLINK_GetDLLVersion()  returns 61201 (0000ms, 0274ms total)
T4504 000:601 JLINK_CORE_GetFound()  returns 0xE0000FF (0000ms, 0274ms total)
T4504 000:601 JLINK_GetDebugInfo(0x100) -- Value=0xE00FF000  returns 0x00 (0000ms, 0274ms total)
T4504 000:601 JLINK_ReadMem (0xE00FF000, 0x0020 Bytes, ...) -- CPU is running -- CPU_ReadMem(32 bytes @ 0xE00FF000) - Data: 03 F0 F0 FF 03 20 F0 FF 03 30 F0 FF 03 10 F0 FF ...  returns 0x00 (0001ms, 0275ms total)
T4504 000:602 JLINK_ReadMem (0xE000EFF0, 0x0010 Bytes, ...) -- CPU is running -- CPU_ReadMem(16 bytes @ 0xE000EFF0) - Data: 0D 00 00 00 E0 00 00 00 05 00 00 00 B1 00 00 00  returns 0x00 (0000ms, 0275ms total)
T4504 000:602 JLINK_ReadMem (0xE000EFD0, 0x0020 Bytes, ...) -- CPU is running -- CPU_ReadMem(32 bytes @ 0xE000EFD0) - Data: 04 00 00 00 00 00 00 00 00 00 00 00 00 00 00 00 ...  returns 0x00 (0001ms, 0276ms total)
T4504 000:603 JLINK_ReadMem (0xE0001FF0, 0x0010 Bytes, ...) -- CPU is running -- CPU_ReadMem(16 bytes @ 0xE0001FF0) - Data: 0D 00 00 00 E0 00 00 00 05 00 00 00 B1 00 00 00  returns 0x00 (0001ms, 0277ms total)
T4504 000:604 JLINK_ReadMem (0xE0001FD0, 0x0020 Bytes, ...) -- CPU is running -- CPU_ReadMem(32 bytes @ 0xE0001FD0) - Data: 04 00 00 00 00 00 00 00 00 00 00 00 00 00 00 00 ...  returns 0x00 (0001ms, 0278ms total)
T4504 000:605 JLINK_ReadMem (0xE0002FF0, 0x0010 Bytes, ...) -- CPU is running -- CPU_ReadMem(16 bytes @ 0xE0002FF0) - Data: 0D 00 00 00 E0 00 00 00 05 00 00 00 B1 00 00 00  returns 0x00 (0001ms, 0279ms total)
T4504 000:606 JLINK_ReadMem (0xE0002FD0, 0x0020 Bytes, ...) -- CPU is running -- CPU_ReadMem(32 bytes @ 0xE0002FD0) - Data: 04 00 00 00 00 00 00 00 00 00 00 00 00 00 00 00 ...  returns 0x00 (0001ms, 0280ms total)
T4504 000:607 JLINK_ReadMem (0xE0000FF0, 0x0010 Bytes, ...) -- CPU is running -- CPU_ReadMem(16 bytes @ 0xE0000FF0) - Data: 0D 00 00 00 E0 00 00 00 05 00 00 00 B1 00 00 00  returns 0x00 (0001ms, 0281ms total)
T4504 000:608 JLINK_ReadMem (0xE0000FD0, 0x0020 Bytes, ...) -- CPU is running -- CPU_ReadMem(32 bytes @ 0xE0000FD0) - Data: 04 00 00 00 00 00 00 00 00 00 00 00 00 00 00 00 ...  returns 0x00 (0000ms, 0281ms total)
T4504 000:608 JLINK_ReadMem (0xE0040FF0, 0x0010 Bytes, ...) -- CPU is running -- CPU_ReadMem(16 bytes @ 0xE0040FF0) - Data: 0D 00 00 00 90 00 00 00 05 00 00 00 B1 00 00 00  returns 0x00 (0001ms, 0282ms total)
T4504 000:609 JLINK_ReadMem (0xE0040FD0, 0x0020 Bytes, ...) -- CPU is running -- CPU_ReadMem(32 bytes @ 0xE0040FD0) - Data: 04 00 00 00 00 00 00 00 00 00 00 00 00 00 00 00 ...  returns 0x00 (0001ms, 0283ms total)
T4504 000:610 JLINK_ReadMem (0xE0041FF0, 0x0010 Bytes, ...) -- CPU is running -- CPU_ReadMem(16 bytes @ 0xE0041FF0) - Data: 0D 00 00 00 90 00 00 00 05 00 00 00 B1 00 00 00  returns 0x00 (0000ms, 0283ms total)
T4504 000:610 JLINK_ReadMem (0xE0041FD0, 0x0020 Bytes, ...) -- CPU is running -- CPU_ReadMem(32 bytes @ 0xE0041FD0) - Data: 04 00 00 00 00 00 00 00 00 00 00 00 00 00 00 00 ...  returns 0x00 (0001ms, 0284ms total)
T4504 000:611 JLINK_ReadMemU32(0xE000EF40, 0x0001 Items, ...) -- CPU is running -- CPU_ReadMem(4 bytes @ 0xE000EF40) - Data: 21 00 11 10  returns 0x01 (0001ms, 0285ms total)
T4504 000:612 JLINK_ReadMemU32(0xE000EF44, 0x0001 Items, ...) -- CPU is running -- CPU_ReadMem(4 bytes @ 0xE000EF44) - Data: 11 00 00 11  returns 0x01 (0000ms, 0285ms total)
T4504 000:612 JLINK_ReadMemU32(0xE000ED00, 0x0001 Items, ...) -- CPU is running -- CPU_ReadMem(4 bytes @ 0xE000ED00) - Data: 41 C2 0F 41  returns 0x01 (0001ms, 0286ms total)
T4504 000:613 JLINK_SetResetType(JLINKARM_CM3_RESET_TYPE_NORMAL)  returns JLINKARM_CM3_RESET_TYPE_NORMAL (0000ms, 0286ms total)
T4504 000:613 JLINK_Reset() -- CPU is running -- CPU_WriteMem(4 bytes @ 0xE000EDF0) -- CPU is running -- CPU_WriteMem(4 bytes @ 0xE000EDFC) >0x35 TIF> -- CPU is running -- CPU_WriteMem(4 bytes @ 0xE000ED0C) -- CPU is running -- CPU_ReadMem(4 bytes @ 0xE000EDF0) -- CPU is running -- CPU_ReadMem(4 bytes @ 0xE000EDF0) -- CPU is running -- CPU_WriteMem(4 bytes @ 0xE000EDF0) -- CPU is running -- CPU_WriteMem(4 bytes @ 0xE000EDFC) -- CPU is running -- CPU_ReadMem(4 bytes @ 0xE000EDF0)
 -- CPU_WriteMem(4 bytes @ 0xE0002000) -- CPU_ReadMem(4 bytes @ 0xE000EDFC) -- CPU_ReadMem(4 bytes @ 0xE0001000) (0020ms, 0306ms total)
T4504 000:633 JLINK_ReadReg(R15 (PC))  returns 0x08000330 (0000ms, 0306ms total)
T4504 000:633 JLINK_ReadReg(XPSR)  returns 0x01000000 (0000ms, 0306ms total)
T4504 000:633 JLINK_Halt()  returns 0x00 (0000ms, 0306ms total)
T4504 000:633 JLINK_IsHalted()  returns TRUE (0000ms, 0306ms total)
T4504 000:633 JLINK_ReadMemU32(0xE000EDF0, 0x0001 Items, ...) -- CPU_ReadMem(4 bytes @ 0xE000EDF0) - Data: 03 00 03 00  returns 0x01 (0001ms, 0307ms total)
T4504 000:634 JLINK_WriteU32(0xE000EDF0, 0xA05F0003) -- CPU_WriteMem(4 bytes @ 0xE000EDF0)  returns 0x00 (0000ms, 0307ms total)
T4504 000:634 JLINK_WriteU32(0xE000EDFC, 0x01000000) -- CPU_WriteMem(4 bytes @ 0xE000EDFC)  returns 0x00 (0001ms, 0308ms total)
T4504 000:635 JLINK_GetHWStatus(...)  returns 0x00 (0001ms, 0309ms total)
T4504 000:636 JLINK_GetNumBPUnits(Type = 0xFFFFFF00)  returns 0x06 (0000ms, 0309ms total)
T4504 000:636 JLINK_GetNumBPUnits(Type = 0xF0)  returns 0x2000 (0000ms, 0309ms total)
T4504 000:636 JLINK_GetNumWPUnits()  returns 0x04 (0000ms, 0309ms total)
T4504 000:636 JLINK_GetSpeed()  returns 0xFA0 (0000ms, 0309ms total)
T4504 000:636 JLINK_ReadMemU32(0xE000E004, 0x0001 Items, ...) -- CPU_ReadMem(4 bytes @ 0xE000E004) - Data: 02 00 00 00  returns 0x01 (0001ms, 0310ms total)
T4504 000:637 JLINK_ReadMemU32(0xE000E004, 0x0001 Items, ...) -- CPU_ReadMem(4 bytes @ 0xE000E004) - Data: 02 00 00 00  returns 0x01 (0001ms, 0311ms total)
T4504 000:638 JLINK_WriteMem(0xE0001000, 0x001C Bytes, ...) - Data: 01 00 00 00 00 00 00 00 00 00 00 00 00 00 00 00 ... -- CPU_WriteMem(28 bytes @ 0xE0001000)  returns 0x1C (0001ms, 0312ms total)
T4504 000:639 JLINK_ReadMem (0xE0001000, 0x001C Bytes, ...) -- CPU_ReadMem(28 bytes @ 0xE0001000) - Data: 01 00 00 40 00 00 00 00 00 00 00 00 00 00 00 00 ...  returns 0x00 (0001ms, 0313ms total)
T4504 000:640 JLINK_ReadReg(R15 (PC))  returns 0x08000330 (0000ms, 0313ms total)
T4504 000:640 JLINK_ReadReg(XPSR)  returns 0x01000000 (0000ms, 0313ms total)
T4504 000:653 JLINK_ReadMem (0xE0001004, 0x0004 Bytes, ...) - Data: 00 00 00 00  returns 0x00 (0000ms, 0313ms total)
T4504 001:463 JLINK_SetResetType(JLINKARM_CM3_RESET_TYPE_NORMAL)  returns JLINKARM_CM3_RESET_TYPE_NORMAL (0000ms, 0313ms total)
T4504 001:463 JLINK_Reset() -- CPU_WriteMem(4 bytes @ 0xE000EDF0) -- CPU_WriteMem(4 bytes @ 0xE000EDFC) >0x35 TIF> -- CPU_WriteMem(4 bytes @ 0xE000ED0C) -- CPU_ReadMem(4 bytes @ 0xE000EDF0) -- CPU_ReadMem(4 bytes @ 0xE000EDF0) -- CPU_WriteMem(4 bytes @ 0xE000EDF0) -- CPU_WriteMem(4 bytes @ 0xE000EDFC) -- CPU is running -- CPU_ReadMem(4 bytes @ 0xE000EDF0) -- CPU_WriteMem(4 bytes @ 0xE0002000) -- CPU_ReadMem(4 bytes @ 0xE000EDFC) -- CPU_ReadMem(4 bytes @ 0xE0001000) (0025ms, 0338ms total)
T4504 001:488 JLINK_ReadReg(R15 (PC))  returns 0x08000330 (0000ms, 0338ms total)
T4504 001:488 JLINK_ReadReg(XPSR)  returns 0x01000000 (0000ms, 0338ms total)
T4504 001:488 JLINK_ReadMemU32(0xE0001004, 0x0001 Items, ...) - Data: 00 00 00 00  returns 0x01 (0000ms, 0338ms total)
T4504 003:024 JLINK_ReadMem (0x08000330, 0x003C Bytes, ...) -- CPU_ReadMem(128 bytes @ 0x08000300) -- Updating C cache (128 bytes @ 0x08000300) -- Read from C cache (60 bytes @ 0x08000330) - Data: 09 48 80 47 09 48 00 47 FE E7 FE E7 FE E7 FE E7 ...  returns 0x00 (0002ms, 0340ms total)
T4504 017:384 JLINK_ReadMem (0x20000462, 0x0001 Bytes, ...) -- CPU_ReadMem(64 bytes @ 0x20000440) -- Updating C cache (64 bytes @ 0x20000440) -- Read from C cache (1 bytes @ 0x20000462) - Data: 00  returns 0x00 (0001ms, 0341ms total)
T65E4 017:534 JLINK_SetBPEx(Addr = 0x0801259C, Type = 0xFFFFFFF2)  returns 0x00000001 (0000ms, 0341ms total)
T65E4 017:534 JLINK_Go() -- CPU_WriteMem(4 bytes @ 0xE0002000) -- CPU_ReadMem(4 bytes @ 0xE0001000) -- CPU_WriteMem(4 bytes @ 0xE0002008) -- CPU_WriteMem(4 bytes @ 0xE000200C) -- CPU_WriteMem(4 bytes @ 0xE0002010) -- CPU_WriteMem(4 bytes @ 0xE0002014) -- CPU_WriteMem(4 bytes @ 0xE0002018) -- CPU_WriteMem(4 bytes @ 0xE000201C) -- CPU_WriteMem(4 bytes @ 0xE0001004) (0005ms, 0346ms total)
T65E4 017:639 JLINK_IsHalted()  returns TRUE (0003ms, 0349ms total)
T65E4 017:642 JLINK_Halt()  returns 0x00 (0000ms, 0346ms total)
T65E4 017:642 JLINK_IsHalted()  returns TRUE (0000ms, 0346ms total)
T65E4 017:642 JLINK_IsHalted()  returns TRUE (0000ms, 0346ms total)
T65E4 017:642 JLINK_IsHalted()  returns TRUE (0000ms, 0346ms total)
T65E4 017:642 JLINK_ReadReg(R15 (PC))  returns 0x0801259C (0000ms, 0346ms total)
T65E4 017:642 JLINK_ReadReg(XPSR)  returns 0x21000000 (0000ms, 0346ms total)
T65E4 017:642 JLINK_ClrBPEx(BPHandle = 0x00000001)  returns 0x00 (0000ms, 0346ms total)
T65E4 017:642 JLINK_ReadMemU32(0xE000ED30, 0x0001 Items, ...) -- CPU_ReadMem(4 bytes @ 0xE000ED30) - Data: 03 00 00 00  returns 0x01 (0000ms, 0346ms total)
T65E4 017:642 JLINK_ReadMemU32(0xE0001028, 0x0001 Items, ...) -- CPU_ReadMem(4 bytes @ 0xE0001028) - Data: 00 00 00 00  returns 0x01 (0000ms, 0346ms total)
T65E4 017:642 JLINK_ReadMemU32(0xE0001038, 0x0001 Items, ...) -- CPU_ReadMem(4 bytes @ 0xE0001038) - Data: 00 02 00 00  returns 0x01 (0001ms, 0347ms total)
T65E4 017:643 JLINK_ReadMemU32(0xE0001048, 0x0001 Items, ...) -- CPU_ReadMem(4 bytes @ 0xE0001048) - Data: 00 00 00 00  returns 0x01 (0000ms, 0347ms total)
T65E4 017:643 JLINK_ReadMemU32(0xE0001058, 0x0001 Items, ...) -- CPU_ReadMem(4 bytes @ 0xE0001058) - Data: 00 00 00 00  returns 0x01 (0001ms, 0348ms total)
T65E4 017:644 JLINK_ReadReg(R0)  returns 0x2000ABD0 (0000ms, 0348ms total)
T65E4 017:644 JLINK_ReadReg(R1)  returns 0x2000CBD0 (0000ms, 0348ms total)
T65E4 017:644 JLINK_ReadReg(R2)  returns 0x2000CBD0 (0000ms, 0348ms total)
T65E4 017:644 JLINK_ReadReg(R3)  returns 0x2000CBD0 (0000ms, 0348ms total)
T65E4 017:644 JLINK_ReadReg(R4)  returns 0x00000000 (0000ms, 0348ms total)
T65E4 017:644 JLINK_ReadReg(R5)  returns 0x2000AB6C (0000ms, 0348ms total)
T65E4 017:644 JLINK_ReadReg(R6)  returns 0x00000000 (0000ms, 0348ms total)
T65E4 017:644 JLINK_ReadReg(R7)  returns 0x00000000 (0000ms, 0348ms total)
T65E4 017:644 JLINK_ReadReg(R8)  returns 0x00000000 (0000ms, 0348ms total)
T65E4 017:644 JLINK_ReadReg(R9)  returns 0x00000000 (0000ms, 0348ms total)
T65E4 017:644 JLINK_ReadReg(R10)  returns 0x080161C8 (0000ms, 0348ms total)
T65E4 017:644 JLINK_ReadReg(R11)  returns 0x00000000 (0000ms, 0348ms total)
T65E4 017:644 JLINK_ReadReg(R12)  returns 0x2000ABE0 (0000ms, 0348ms total)
T65E4 017:644 JLINK_ReadReg(R13 (SP))  returns 0x2000EBD0 (0000ms, 0348ms total)
T65E4 017:644 JLINK_ReadReg(R14)  returns 0x0800025F (0000ms, 0348ms total)
T65E4 017:644 JLINK_ReadReg(R15 (PC))  returns 0x0801259C (0000ms, 0348ms total)
T65E4 017:644 JLINK_ReadReg(XPSR)  returns 0x21000000 (0000ms, 0348ms total)
T65E4 017:644 JLINK_ReadReg(MSP)  returns 0x2000EBD0 (0000ms, 0348ms total)
T65E4 017:644 JLINK_ReadReg(PSP)  returns 0x00000000 (0000ms, 0348ms total)
T65E4 017:644 JLINK_ReadReg(CFBP)  returns 0x04000000 (0000ms, 0348ms total)
T65E4 017:644 JLINK_ReadReg(FPSCR)  returns 0x03000000 (0004ms, 0352ms total)
T65E4 017:648 JLINK_ReadReg(FPS0)  returns 0x00000000 (0000ms, 0352ms total)
T65E4 017:648 JLINK_ReadReg(FPS1)  returns 0x00000000 (0000ms, 0352ms total)
T65E4 017:648 JLINK_ReadReg(FPS2)  returns 0x00000000 (0000ms, 0352ms total)
T65E4 017:648 JLINK_ReadReg(FPS3)  returns 0x00000000 (0000ms, 0352ms total)
T65E4 017:648 JLINK_ReadReg(FPS4)  returns 0x00000000 (0000ms, 0352ms total)
T65E4 017:648 JLINK_ReadReg(FPS5)  returns 0x00000000 (0000ms, 0352ms total)
T65E4 017:648 JLINK_ReadReg(FPS6)  returns 0x00000000 (0000ms, 0352ms total)
T65E4 017:648 JLINK_ReadReg(FPS7)  returns 0x00000000 (0000ms, 0352ms total)
T65E4 017:648 JLINK_ReadReg(FPS8)  returns 0x00000000 (0000ms, 0352ms total)
T65E4 017:648 JLINK_ReadReg(FPS9)  returns 0x00000000 (0000ms, 0352ms total)
T65E4 017:648 JLINK_ReadReg(FPS10)  returns 0x00000000 (0000ms, 0352ms total)
T65E4 017:649 JLINK_ReadReg(FPS11)  returns 0x00000000 (0000ms, 0353ms total)
T65E4 017:649 JLINK_ReadReg(FPS12)  returns 0x00000000 (0000ms, 0353ms total)
T65E4 017:649 JLINK_ReadReg(FPS13)  returns 0x00000000 (0000ms, 0353ms total)
T65E4 017:649 JLINK_ReadReg(FPS14)  returns 0x00000000 (0000ms, 0353ms total)
T65E4 017:649 JLINK_ReadReg(FPS15)  returns 0x00000000 (0000ms, 0353ms total)
T65E4 017:649 JLINK_ReadReg(FPS16)  returns 0x00000000 (0000ms, 0353ms total)
T65E4 017:649 JLINK_ReadReg(FPS17)  returns 0x00000000 (0000ms, 0353ms total)
T65E4 017:649 JLINK_ReadReg(FPS18)  returns 0x00000000 (0000ms, 0353ms total)
T65E4 017:649 JLINK_ReadReg(FPS19)  returns 0x00000000 (0000ms, 0353ms total)
T65E4 017:649 JLINK_ReadReg(FPS20)  returns 0x00000000 (0000ms, 0353ms total)
T65E4 017:649 JLINK_ReadReg(FPS21)  returns 0x00000000 (0000ms, 0353ms total)
T65E4 017:649 JLINK_ReadReg(FPS22)  returns 0x00000000 (0000ms, 0353ms total)
T65E4 017:649 JLINK_ReadReg(FPS23)  returns 0x00000000 (0000ms, 0353ms total)
T65E4 017:649 JLINK_ReadReg(FPS24)  returns 0x00000000 (0000ms, 0353ms total)
T65E4 017:649 JLINK_ReadReg(FPS25)  returns 0x00000000 (0000ms, 0353ms total)
T65E4 017:649 JLINK_ReadReg(FPS26)  returns 0x00000000 (0000ms, 0353ms total)
T65E4 017:649 JLINK_ReadReg(FPS27)  returns 0x00000000 (0000ms, 0353ms total)
T65E4 017:649 JLINK_ReadReg(FPS28)  returns 0x00000000 (0000ms, 0353ms total)
T65E4 017:649 JLINK_ReadReg(FPS29)  returns 0x00000000 (0000ms, 0353ms total)
T65E4 017:649 JLINK_ReadReg(FPS30)  returns 0x00000000 (0000ms, 0353ms total)
T65E4 017:649 JLINK_ReadReg(FPS31)  returns 0x00000000 (0000ms, 0353ms total)
T65E4 017:649 JLINK_ReadMem (0x2000004C, 0x0004 Bytes, ...) -- CPU_ReadMem(64 bytes @ 0x20000040) -- Updating C cache (64 bytes @ 0x20000040) -- Read from C cache (4 bytes @ 0x2000004C) - Data: 00 00 00 00  returns 0x00 (0001ms, 0354ms total)
T4504 017:655 JLINK_ReadMemU32(0xE0001004, 0x0001 Items, ...) -- CPU_ReadMem(4 bytes @ 0xE0001004) - Data: 8E 9F 00 00  returns 0x01 (0000ms, 0354ms total)
T4504 017:658 JLINK_ReadMem (0x0801249C, 0x003C Bytes, ...) -- CPU_ReadMem(128 bytes @ 0x08012480) -- Updating C cache (128 bytes @ 0x08012480) -- Read from C cache (60 bytes @ 0x0801249C) - Data: FA F7 FA F8 10 BD 00 00 F0 EE 40 0A F6 EE 00 1A ...  returns 0x00 (0001ms, 0355ms total)
T4504 017:659 JLINK_ReadMem (0x080124D8, 0x003C Bytes, ...) -- CPU_ReadMem(64 bytes @ 0x08012500) -- Updating C cache (64 bytes @ 0x08012500) -- Read from C cache (60 bytes @ 0x080124D8) - Data: 61 0A 70 47 86 5A 37 5F 29 48 90 ED FA 1A F0 EE ...  returns 0x00 (0001ms, 0356ms total)
T4504 017:660 JLINK_ReadMem (0x08012514, 0x003C Bytes, ...) -- CPU_ReadMem(64 bytes @ 0x08012540) -- Updating C cache (64 bytes @ 0x08012540) -- Read from C cache (60 bytes @ 0x08012514) - Data: 40 1A B7 EE 00 2A B0 EE 60 1A 02 EE 21 1A 1C 48 ...  returns 0x00 (0001ms, 0357ms total)
T4504 017:661 JLINK_ReadMem (0x08012550, 0x003C Bytes, ...) -- CPU_ReadMem(64 bytes @ 0x08012580) -- Updating C cache (64 bytes @ 0x08012580) -- Read from C cache (60 bytes @ 0x08012550) - Data: F1 EE 10 FA 02 D8 90 ED 0B 1A 10 E0 0A 48 90 ED ...  returns 0x00 (0002ms, 0359ms total)
T4504 017:663 JLINK_ReadMem (0x0801259A, 0x0002 Bytes, ...) -- Read from C cache (2 bytes @ 0x0801259A) - Data: 20 42  returns 0x00 (0000ms, 0359ms total)
T4504 017:663 JLINK_ReadMem (0x0801259C, 0x003C Bytes, ...) -- CPU_ReadMem(64 bytes @ 0x080125C0) -- Updating C cache (64 bytes @ 0x080125C0) -- Read from C cache (60 bytes @ 0x0801259C) - Data: EF F7 58 F9 FA F7 BE F8 F8 F7 3E F9 00 F0 09 F8 ...  returns 0x00 (0001ms, 0360ms total)
T65E4 035:198 JLINK_Step() -- Read from C cache (2 bytes @ 0x0801259C) -- CPU_ReadMem(4 bytes @ 0xE000ED18) -- CPU_WriteMem(4 bytes @ 0xE000ED18) -- CPU_ReadMem(4 bytes @ 0xE000ED18) -- CPU_WriteMem(4 bytes @ 0xE000ED18) -- Read from C cache (2 bytes @ 0x0801259E) -- Simulated  returns 0x00 (0002ms, 0362ms total)
T65E4 035:200 JLINK_ReadReg(R15 (PC))  returns 0x08001850 (0000ms, 0362ms total)
T65E4 035:200 JLINK_ReadReg(XPSR)  returns 0x21000000 (0000ms, 0362ms total)
T65E4 035:201 JLINK_ReadReg(R0)  returns 0x2000ABD0 (0000ms, 0362ms total)
T65E4 035:201 JLINK_ReadReg(R1)  returns 0x2000CBD0 (0000ms, 0362ms total)
T65E4 035:201 JLINK_ReadReg(R2)  returns 0x2000CBD0 (0000ms, 0362ms total)
T65E4 035:201 JLINK_ReadReg(R3)  returns 0x2000CBD0 (0000ms, 0362ms total)
T65E4 035:201 JLINK_ReadReg(R4)  returns 0x00000000 (0000ms, 0362ms total)
T65E4 035:201 JLINK_ReadReg(R5)  returns 0x2000AB6C (0000ms, 0362ms total)
T65E4 035:201 JLINK_ReadReg(R6)  returns 0x00000000 (0000ms, 0362ms total)
T65E4 035:201 JLINK_ReadReg(R7)  returns 0x00000000 (0000ms, 0362ms total)
T65E4 035:201 JLINK_ReadReg(R8)  returns 0x00000000 (0000ms, 0362ms total)
T65E4 035:201 JLINK_ReadReg(R9)  returns 0x00000000 (0000ms, 0362ms total)
T65E4 035:201 JLINK_ReadReg(R10)  returns 0x080161C8 (0000ms, 0362ms total)
T65E4 035:201 JLINK_ReadReg(R11)  returns 0x00000000 (0000ms, 0362ms total)
T65E4 035:201 JLINK_ReadReg(R12)  returns 0x2000ABE0 (0000ms, 0362ms total)
T65E4 035:201 JLINK_ReadReg(R13 (SP))  returns 0x2000EBD0 (0000ms, 0362ms total)
T65E4 035:201 JLINK_ReadReg(R14)  returns 0x080125A1 (0001ms, 0363ms total)
T65E4 035:202 JLINK_ReadReg(R15 (PC))  returns 0x08001850 (0000ms, 0363ms total)
T65E4 035:202 JLINK_ReadReg(XPSR)  returns 0x21000000 (0000ms, 0363ms total)
T65E4 035:202 JLINK_ReadReg(MSP)  returns 0x2000EBD0 (0000ms, 0363ms total)
T65E4 035:202 JLINK_ReadReg(PSP)  returns 0x00000000 (0000ms, 0363ms total)
T65E4 035:202 JLINK_ReadReg(CFBP)  returns 0x04000000 (0000ms, 0363ms total)
T65E4 035:202 JLINK_ReadReg(FPSCR)  returns 0x03000000 (0000ms, 0363ms total)
T65E4 035:202 JLINK_ReadReg(FPS0)  returns 0x00000000 (0000ms, 0363ms total)
T65E4 035:202 JLINK_ReadReg(FPS1)  returns 0x00000000 (0000ms, 0363ms total)
T65E4 035:202 JLINK_ReadReg(FPS2)  returns 0x00000000 (0000ms, 0363ms total)
T65E4 035:202 JLINK_ReadReg(FPS3)  returns 0x00000000 (0000ms, 0363ms total)
T65E4 035:202 JLINK_ReadReg(FPS4)  returns 0x00000000 (0000ms, 0363ms total)
T65E4 035:202 JLINK_ReadReg(FPS5)  returns 0x00000000 (0000ms, 0363ms total)
T65E4 035:202 JLINK_ReadReg(FPS6)  returns 0x00000000 (0000ms, 0363ms total)
T65E4 035:202 JLINK_ReadReg(FPS7)  returns 0x00000000 (0000ms, 0363ms total)
T65E4 035:202 JLINK_ReadReg(FPS8)  returns 0x00000000 (0000ms, 0363ms total)
T65E4 035:202 JLINK_ReadReg(FPS9)  returns 0x00000000 (0000ms, 0363ms total)
T65E4 035:202 JLINK_ReadReg(FPS10)  returns 0x00000000 (0000ms, 0363ms total)
T65E4 035:202 JLINK_ReadReg(FPS11)  returns 0x00000000 (0000ms, 0363ms total)
T65E4 035:202 JLINK_ReadReg(FPS12)  returns 0x00000000 (0000ms, 0363ms total)
T65E4 035:202 JLINK_ReadReg(FPS13)  returns 0x00000000 (0000ms, 0363ms total)
T65E4 035:202 JLINK_ReadReg(FPS14)  returns 0x00000000 (0000ms, 0363ms total)
T65E4 035:202 JLINK_ReadReg(FPS15)  returns 0x00000000 (0000ms, 0363ms total)
T65E4 035:202 JLINK_ReadReg(FPS16)  returns 0x00000000 (0000ms, 0363ms total)
T65E4 035:202 JLINK_ReadReg(FPS17)  returns 0x00000000 (0000ms, 0363ms total)
T65E4 035:202 JLINK_ReadReg(FPS18)  returns 0x00000000 (0000ms, 0363ms total)
T65E4 035:202 JLINK_ReadReg(FPS19)  returns 0x00000000 (0000ms, 0363ms total)
T65E4 035:202 JLINK_ReadReg(FPS20)  returns 0x00000000 (0000ms, 0363ms total)
T65E4 035:202 JLINK_ReadReg(FPS21)  returns 0x00000000 (0000ms, 0363ms total)
T65E4 035:202 JLINK_ReadReg(FPS22)  returns 0x00000000 (0000ms, 0363ms total)
T65E4 035:202 JLINK_ReadReg(FPS23)  returns 0x00000000 (0000ms, 0363ms total)
T65E4 035:202 JLINK_ReadReg(FPS24)  returns 0x00000000 (0000ms, 0363ms total)
T65E4 035:202 JLINK_ReadReg(FPS25)  returns 0x00000000 (0000ms, 0363ms total)
T65E4 035:202 JLINK_ReadReg(FPS26)  returns 0x00000000 (0000ms, 0363ms total)
T65E4 035:202 JLINK_ReadReg(FPS27)  returns 0x00000000 (0000ms, 0363ms total)
T65E4 035:202 JLINK_ReadReg(FPS28)  returns 0x00000000 (0000ms, 0363ms total)
T65E4 035:202 JLINK_ReadReg(FPS29)  returns 0x00000000 (0000ms, 0363ms total)
T65E4 035:202 JLINK_ReadReg(FPS30)  returns 0x00000000 (0000ms, 0363ms total)
T65E4 035:202 JLINK_ReadReg(FPS31)  returns 0x00000000 (0000ms, 0363ms total)
T65E4 035:202 JLINK_ReadMem (0x2000004C, 0x0004 Bytes, ...) -- Read from C cache (4 bytes @ 0x2000004C) - Data: 00 00 00 00  returns 0x00 (0000ms, 0363ms total)
T4504 035:206 JLINK_ReadMemU32(0xE0001004, 0x0001 Items, ...) - Data: 8F 9F 00 00  returns 0x01 (0000ms, 0363ms total)
T4504 035:209 JLINK_ReadMem (0x08001750, 0x003C Bytes, ...) -- CPU_ReadMem(128 bytes @ 0x08001740) -- Updating C cache (128 bytes @ 0x08001740) -- Read from C cache (60 bytes @ 0x08001750) - Data: 90 ED 02 1A 00 EE 81 0A F0 EE 00 0A 20 EE 20 0A ...  returns 0x00 (0002ms, 0365ms total)
T4504 035:211 JLINK_ReadMem (0x0800178C, 0x003C Bytes, ...) -- CPU_ReadMem(64 bytes @ 0x080017C0) -- Updating C cache (64 bytes @ 0x080017C0) -- Read from C cache (60 bytes @ 0x0800178C) - Data: B6 EE 00 0A 01 EE 61 0A D2 ED 03 1A 92 ED 03 2A ...  returns 0x00 (0001ms, 0366ms total)
T4504 035:212 JLINK_ReadMem (0x080017C8, 0x0038 Bytes, ...) -- Read from C cache (56 bytes @ 0x080017C8) - Data: 90 ED 02 1A 00 EE 81 0A F0 EE 00 0A 20 EE 20 0A ...  returns 0x00 (0000ms, 0366ms total)
T4504 035:212 JLINK_ReadMem (0x08001800, 0x0004 Bytes, ...) -- CPU_ReadMem(64 bytes @ 0x08001800) -- Updating C cache (64 bytes @ 0x08001800) -- Read from C cache (4 bytes @ 0x08001800) - Data: 92 ED 03 1A  returns 0x00 (0001ms, 0367ms total)
T4504 035:213 JLINK_ReadMem (0x08001804, 0x003C Bytes, ...) -- Read from C cache (60 bytes @ 0x08001804) - Data: 60 EE 81 0A 92 ED 00 1A D2 ED 01 1A 41 EE 21 0A ...  returns 0x00 (0000ms, 0367ms total)
T4504 035:213 JLINK_ReadMem (0x08001840, 0x003C Bytes, ...) -- CPU_ReadMem(64 bytes @ 0x08001840) -- Updating C cache (64 bytes @ 0x08001840) -- Read from C cache (60 bytes @ 0x08001840) - Data: F0 EE 00 0A 20 EE 20 0A 81 ED 02 0A 70 47 00 00 ...  returns 0x00 (0001ms, 0368ms total)
T65E4 036:712 JLINK_Step() -- Read from C cache (2 bytes @ 0x08001850) -- CPU_WriteMem(8 bytes @ 0x2000EBC8) -- Simulated  returns 0x00 (0002ms, 0370ms total)
T65E4 036:714 JLINK_ReadReg(R15 (PC))  returns 0x08001852 (0000ms, 0370ms total)
T65E4 036:714 JLINK_ReadReg(XPSR)  returns 0x21000000 (0000ms, 0370ms total)
T65E4 036:714 JLINK_ReadReg(R0)  returns 0x2000ABD0 (0000ms, 0370ms total)
T65E4 036:714 JLINK_ReadReg(R1)  returns 0x2000CBD0 (0000ms, 0370ms total)
T65E4 036:714 JLINK_ReadReg(R2)  returns 0x2000CBD0 (0000ms, 0370ms total)
T65E4 036:714 JLINK_ReadReg(R3)  returns 0x2000CBD0 (0000ms, 0370ms total)
T65E4 036:714 JLINK_ReadReg(R4)  returns 0x00000000 (0000ms, 0370ms total)
T65E4 036:714 JLINK_ReadReg(R5)  returns 0x2000AB6C (0000ms, 0370ms total)
T65E4 036:714 JLINK_ReadReg(R6)  returns 0x00000000 (0000ms, 0370ms total)
T65E4 036:714 JLINK_ReadReg(R7)  returns 0x00000000 (0000ms, 0370ms total)
T65E4 036:714 JLINK_ReadReg(R8)  returns 0x00000000 (0000ms, 0370ms total)
T65E4 036:714 JLINK_ReadReg(R9)  returns 0x00000000 (0000ms, 0370ms total)
T65E4 036:714 JLINK_ReadReg(R10)  returns 0x080161C8 (0000ms, 0370ms total)
T65E4 036:714 JLINK_ReadReg(R11)  returns 0x00000000 (0000ms, 0370ms total)
T65E4 036:714 JLINK_ReadReg(R12)  returns 0x2000ABE0 (0000ms, 0370ms total)
T65E4 036:714 JLINK_ReadReg(R13 (SP))  returns 0x2000EBC8 (0000ms, 0370ms total)
T65E4 036:714 JLINK_ReadReg(R14)  returns 0x080125A1 (0000ms, 0370ms total)
T65E4 036:714 JLINK_ReadReg(R15 (PC))  returns 0x08001852 (0000ms, 0370ms total)
T65E4 036:714 JLINK_ReadReg(XPSR)  returns 0x21000000 (0000ms, 0370ms total)
T65E4 036:714 JLINK_ReadReg(MSP)  returns 0x2000EBC8 (0000ms, 0370ms total)
T65E4 036:714 JLINK_ReadReg(PSP)  returns 0x00000000 (0000ms, 0370ms total)
T65E4 036:714 JLINK_ReadReg(CFBP)  returns 0x04000000 (0000ms, 0370ms total)
T65E4 036:714 JLINK_ReadReg(FPSCR)  returns 0x03000000 (0000ms, 0370ms total)
T65E4 036:714 JLINK_ReadReg(FPS0)  returns 0x00000000 (0000ms, 0370ms total)
T65E4 036:714 JLINK_ReadReg(FPS1)  returns 0x00000000 (0000ms, 0370ms total)
T65E4 036:714 JLINK_ReadReg(FPS2)  returns 0x00000000 (0000ms, 0370ms total)
T65E4 036:714 JLINK_ReadReg(FPS3)  returns 0x00000000 (0000ms, 0370ms total)
T65E4 036:714 JLINK_ReadReg(FPS4)  returns 0x00000000 (0000ms, 0370ms total)
T65E4 036:714 JLINK_ReadReg(FPS5)  returns 0x00000000 (0000ms, 0370ms total)
T65E4 036:714 JLINK_ReadReg(FPS6)  returns 0x00000000 (0000ms, 0370ms total)
T65E4 036:714 JLINK_ReadReg(FPS7)  returns 0x00000000 (0000ms, 0370ms total)
T65E4 036:714 JLINK_ReadReg(FPS8)  returns 0x00000000 (0000ms, 0370ms total)
T65E4 036:714 JLINK_ReadReg(FPS9)  returns 0x00000000 (0000ms, 0370ms total)
T65E4 036:714 JLINK_ReadReg(FPS10)  returns 0x00000000 (0000ms, 0370ms total)
T65E4 036:714 JLINK_ReadReg(FPS11)  returns 0x00000000 (0000ms, 0370ms total)
T65E4 036:714 JLINK_ReadReg(FPS12)  returns 0x00000000 (0000ms, 0370ms total)
T65E4 036:714 JLINK_ReadReg(FPS13)  returns 0x00000000 (0000ms, 0370ms total)
T65E4 036:714 JLINK_ReadReg(FPS14)  returns 0x00000000 (0000ms, 0370ms total)
T65E4 036:714 JLINK_ReadReg(FPS15)  returns 0x00000000 (0000ms, 0370ms total)
T65E4 036:714 JLINK_ReadReg(FPS16)  returns 0x00000000 (0000ms, 0370ms total)
T65E4 036:714 JLINK_ReadReg(FPS17)  returns 0x00000000 (0000ms, 0370ms total)
T65E4 036:714 JLINK_ReadReg(FPS18)  returns 0x00000000 (0000ms, 0370ms total)
T65E4 036:714 JLINK_ReadReg(FPS19)  returns 0x00000000 (0000ms, 0370ms total)
T65E4 036:714 JLINK_ReadReg(FPS20)  returns 0x00000000 (0000ms, 0370ms total)
T65E4 036:714 JLINK_ReadReg(FPS21)  returns 0x00000000 (0000ms, 0370ms total)
T65E4 036:714 JLINK_ReadReg(FPS22)  returns 0x00000000 (0000ms, 0370ms total)
T65E4 036:714 JLINK_ReadReg(FPS23)  returns 0x00000000 (0000ms, 0370ms total)
T65E4 036:714 JLINK_ReadReg(FPS24)  returns 0x00000000 (0000ms, 0370ms total)
T65E4 036:714 JLINK_ReadReg(FPS25)  returns 0x00000000 (0000ms, 0370ms total)
T65E4 036:714 JLINK_ReadReg(FPS26)  returns 0x00000000 (0000ms, 0370ms total)
T65E4 036:714 JLINK_ReadReg(FPS27)  returns 0x00000000 (0000ms, 0370ms total)
T65E4 036:714 JLINK_ReadReg(FPS28)  returns 0x00000000 (0000ms, 0370ms total)
T65E4 036:714 JLINK_ReadReg(FPS29)  returns 0x00000000 (0000ms, 0370ms total)
T65E4 036:714 JLINK_ReadReg(FPS30)  returns 0x00000000 (0000ms, 0370ms total)
T65E4 036:714 JLINK_ReadReg(FPS31)  returns 0x00000000 (0000ms, 0370ms total)
T65E4 036:714 JLINK_ReadMem (0x2000004C, 0x0004 Bytes, ...) -- Read from C cache (4 bytes @ 0x2000004C) - Data: 00 00 00 00  returns 0x00 (0000ms, 0370ms total)
T4504 036:715 JLINK_ReadMem (0x2000EBCC, 0x0004 Bytes, ...) -- CPU_ReadMem(64 bytes @ 0x2000EBC0) -- Updating C cache (64 bytes @ 0x2000EBC0) -- Read from C cache (4 bytes @ 0x2000EBCC) - Data: A1 25 01 08  returns 0x00 (0001ms, 0372ms total)
T4504 036:716 JLINK_ReadMem (0x2000EBC8, 0x0004 Bytes, ...) -- Read from C cache (4 bytes @ 0x2000EBC8) - Data: 00 00 00 00  returns 0x00 (0000ms, 0372ms total)
T4504 036:716 JLINK_ReadMemU32(0xE0001004, 0x0001 Items, ...) - Data: 92 9F 00 00  returns 0x01 (0000ms, 0372ms total)
T4504 036:719 JLINK_ReadMem (0x08001850, 0x003C Bytes, ...) -- CPU_ReadMem(64 bytes @ 0x08001880) -- Updating C cache (64 bytes @ 0x08001880) -- Read from C cache (60 bytes @ 0x08001850) - Data: 10 B5 04 F0 DD F9 0B F0 8F FE 09 F0 2F F8 08 F0 ...  returns 0x00 (0001ms, 0373ms total)
T65E4 042:706 JLINK_SetBPEx(Addr = 0x080125A0, Type = 0xFFFFFFF2)  returns 0x00000002 (0000ms, 0373ms total)
T65E4 042:706 JLINK_SetBPEx(Addr = 0x0800C0C0, Type = 0xFFFFFFF2)  returns 0x00000003 (0000ms, 0373ms total)
T65E4 042:706 JLINK_Go() -- CPU_WriteMem(4 bytes @ 0xE0002000) -- CPU_WriteMem(4 bytes @ 0xE0002000) -- CPU_ReadMem(4 bytes @ 0xE0001000) -- CPU_WriteMem(4 bytes @ 0xE0002008) -- CPU_WriteMem(4 bytes @ 0xE000200C) -- CPU_WriteMem(4 bytes @ 0xE0001004) (0005ms, 0378ms total)
T65E4 042:812 JLINK_IsHalted()  returns TRUE (0002ms, 0380ms total)
T65E4 042:814 JLINK_Halt()  returns 0x00 (0000ms, 0378ms total)
T65E4 042:814 JLINK_IsHalted()  returns TRUE (0001ms, 0379ms total)
T65E4 042:815 JLINK_IsHalted()  returns TRUE (0000ms, 0378ms total)
T65E4 042:815 JLINK_IsHalted()  returns TRUE (0000ms, 0378ms total)
T65E4 042:815 JLINK_ReadReg(R15 (PC))  returns 0x080125A0 (0000ms, 0378ms total)
T65E4 042:815 JLINK_ReadReg(XPSR)  returns 0x41000000 (0000ms, 0378ms total)
T65E4 042:815 JLINK_ClrBPEx(BPHandle = 0x00000002)  returns 0x00 (0000ms, 0378ms total)
T65E4 042:815 JLINK_ClrBPEx(BPHandle = 0x00000003)  returns 0x00 (0000ms, 0378ms total)
T65E4 042:815 JLINK_ReadMemU32(0xE000ED30, 0x0001 Items, ...) -- CPU_ReadMem(4 bytes @ 0xE000ED30) - Data: 03 00 00 00  returns 0x01 (0000ms, 0378ms total)
T65E4 042:815 JLINK_ReadMemU32(0xE0001028, 0x0001 Items, ...) -- CPU_ReadMem(4 bytes @ 0xE0001028) - Data: 00 00 00 00  returns 0x01 (0001ms, 0379ms total)
T65E4 042:816 JLINK_ReadMemU32(0xE0001038, 0x0001 Items, ...) -- CPU_ReadMem(4 bytes @ 0xE0001038) - Data: 00 02 00 00  returns 0x01 (0000ms, 0379ms total)
T65E4 042:816 JLINK_ReadMemU32(0xE0001048, 0x0001 Items, ...) -- CPU_ReadMem(4 bytes @ 0xE0001048) - Data: 00 00 00 00  returns 0x01 (0000ms, 0379ms total)
T65E4 042:816 JLINK_ReadMemU32(0xE0001058, 0x0001 Items, ...) -- CPU_ReadMem(4 bytes @ 0xE0001058) - Data: 00 00 00 00  returns 0x01 (0001ms, 0380ms total)
T65E4 042:817 JLINK_ReadReg(R0)  returns 0x00000000 (0000ms, 0380ms total)
T65E4 042:817 JLINK_ReadReg(R1)  returns 0x40000800 (0000ms, 0380ms total)
T65E4 042:817 JLINK_ReadReg(R2)  returns 0x00000001 (0000ms, 0380ms total)
T65E4 042:817 JLINK_ReadReg(R3)  returns 0x00000100 (0000ms, 0380ms total)
T65E4 042:817 JLINK_ReadReg(R4)  returns 0x00000000 (0000ms, 0380ms total)
T65E4 042:817 JLINK_ReadReg(R5)  returns 0x2000AB6C (0000ms, 0380ms total)
T65E4 042:817 JLINK_ReadReg(R6)  returns 0x00000000 (0000ms, 0380ms total)
T65E4 042:817 JLINK_ReadReg(R7)  returns 0x00000000 (0000ms, 0380ms total)
T65E4 042:817 JLINK_ReadReg(R8)  returns 0x00000000 (0000ms, 0380ms total)
T65E4 042:817 JLINK_ReadReg(R9)  returns 0x00000000 (0000ms, 0380ms total)
T65E4 042:817 JLINK_ReadReg(R10)  returns 0x080161C8 (0000ms, 0380ms total)
T65E4 042:817 JLINK_ReadReg(R11)  returns 0x00000000 (0000ms, 0380ms total)
T65E4 042:817 JLINK_ReadReg(R12)  returns 0x00000000 (0000ms, 0380ms total)
T65E4 042:817 JLINK_ReadReg(R13 (SP))  returns 0x2000EBD0 (0000ms, 0380ms total)
T65E4 042:817 JLINK_ReadReg(R14)  returns 0x08007D6D (0000ms, 0380ms total)
T65E4 042:817 JLINK_ReadReg(R15 (PC))  returns 0x080125A0 (0000ms, 0380ms total)
T65E4 042:817 JLINK_ReadReg(XPSR)  returns 0x41000000 (0000ms, 0380ms total)
T65E4 042:817 JLINK_ReadReg(MSP)  returns 0x2000EBD0 (0000ms, 0380ms total)
T65E4 042:817 JLINK_ReadReg(PSP)  returns 0x00000000 (0000ms, 0380ms total)
T65E4 042:817 JLINK_ReadReg(CFBP)  returns 0x04000000 (0000ms, 0380ms total)
T65E4 042:817 JLINK_ReadReg(FPSCR)  returns 0x03000000 (0004ms, 0384ms total)
T65E4 042:821 JLINK_ReadReg(FPS0)  returns 0x00000000 (0000ms, 0384ms total)
T65E4 042:821 JLINK_ReadReg(FPS1)  returns 0x00000000 (0000ms, 0384ms total)
T65E4 042:821 JLINK_ReadReg(FPS2)  returns 0x00000000 (0000ms, 0384ms total)
T65E4 042:821 JLINK_ReadReg(FPS3)  returns 0x00000000 (0000ms, 0384ms total)
T65E4 042:821 JLINK_ReadReg(FPS4)  returns 0x00000000 (0000ms, 0384ms total)
T65E4 042:821 JLINK_ReadReg(FPS5)  returns 0x00000000 (0000ms, 0384ms total)
T65E4 042:821 JLINK_ReadReg(FPS6)  returns 0x00000000 (0000ms, 0384ms total)
T65E4 042:821 JLINK_ReadReg(FPS7)  returns 0x00000000 (0000ms, 0384ms total)
T65E4 042:821 JLINK_ReadReg(FPS8)  returns 0x00000000 (0000ms, 0384ms total)
T65E4 042:821 JLINK_ReadReg(FPS9)  returns 0x00000000 (0000ms, 0384ms total)
T65E4 042:821 JLINK_ReadReg(FPS10)  returns 0x00000000 (0000ms, 0384ms total)
T65E4 042:821 JLINK_ReadReg(FPS11)  returns 0x00000000 (0000ms, 0384ms total)
T65E4 042:821 JLINK_ReadReg(FPS12)  returns 0x00000000 (0000ms, 0384ms total)
T65E4 042:821 JLINK_ReadReg(FPS13)  returns 0x00000000 (0000ms, 0384ms total)
T65E4 042:821 JLINK_ReadReg(FPS14)  returns 0x00000000 (0000ms, 0384ms total)
T65E4 042:821 JLINK_ReadReg(FPS15)  returns 0x00000000 (0000ms, 0384ms total)
T65E4 042:821 JLINK_ReadReg(FPS16)  returns 0x00000000 (0000ms, 0384ms total)
T65E4 042:821 JLINK_ReadReg(FPS17)  returns 0x00000000 (0000ms, 0384ms total)
T65E4 042:821 JLINK_ReadReg(FPS18)  returns 0x00000000 (0000ms, 0384ms total)
T65E4 042:821 JLINK_ReadReg(FPS19)  returns 0x00000000 (0000ms, 0384ms total)
T65E4 042:821 JLINK_ReadReg(FPS20)  returns 0x00000000 (0000ms, 0384ms total)
T65E4 042:821 JLINK_ReadReg(FPS21)  returns 0x00000000 (0000ms, 0384ms total)
T65E4 042:821 JLINK_ReadReg(FPS22)  returns 0x00000000 (0000ms, 0384ms total)
T65E4 042:821 JLINK_ReadReg(FPS23)  returns 0x00000000 (0000ms, 0384ms total)
T65E4 042:821 JLINK_ReadReg(FPS24)  returns 0x00000000 (0000ms, 0384ms total)
T65E4 042:821 JLINK_ReadReg(FPS25)  returns 0x00000000 (0000ms, 0384ms total)
T65E4 042:821 JLINK_ReadReg(FPS26)  returns 0x00000000 (0000ms, 0384ms total)
T65E4 042:821 JLINK_ReadReg(FPS27)  returns 0x00000000 (0000ms, 0384ms total)
T65E4 042:821 JLINK_ReadReg(FPS28)  returns 0x00000000 (0001ms, 0385ms total)
T65E4 042:822 JLINK_ReadReg(FPS29)  returns 0x00000000 (0000ms, 0385ms total)
T65E4 042:822 JLINK_ReadReg(FPS30)  returns 0x00000000 (0000ms, 0385ms total)
T65E4 042:822 JLINK_ReadReg(FPS31)  returns 0x00000000 (0000ms, 0385ms total)
T65E4 042:822 JLINK_ReadMem (0x2000004C, 0x0004 Bytes, ...) -- CPU_ReadMem(64 bytes @ 0x20000040) -- Updating C cache (64 bytes @ 0x20000040) -- Read from C cache (4 bytes @ 0x2000004C) - Data: 00 00 00 00  returns 0x00 (0000ms, 0385ms total)
T4504 042:833 JLINK_ReadMemU32(0xE0001004, 0x0001 Items, ...) -- CPU_ReadMem(4 bytes @ 0xE0001004) - Data: DC 50 00 00  returns 0x01 (0000ms, 0385ms total)
T4504 042:836 JLINK_ReadMem (0x0801259C, 0x003C Bytes, ...) -- CPU_ReadMem(128 bytes @ 0x08012580) -- Updating C cache (128 bytes @ 0x08012580) -- Read from C cache (60 bytes @ 0x0801259C) - Data: EF F7 58 F9 FA F7 BE F8 F8 F7 3E F9 00 F0 09 F8 ...  returns 0x00 (0002ms, 0387ms total)
T65E4 045:861 JLINK_SetBPEx(Addr = 0x080125A4, Type = 0xFFFFFFF2)  returns 0x00000004 (0000ms, 0387ms total)
T65E4 045:861 JLINK_SetBPEx(Addr = 0x0800C0C0, Type = 0xFFFFFFF2)  returns 0x00000005 (0000ms, 0387ms total)
T65E4 045:861 JLINK_Go() -- CPU_WriteMem(4 bytes @ 0xE0002000) -- CPU_WriteMem(4 bytes @ 0xE0002000) -- CPU_ReadMem(4 bytes @ 0xE0001000) -- CPU_WriteMem(4 bytes @ 0xE0002008) (0003ms, 0390ms total)
T65E4 045:964 JLINK_IsHalted()  returns FALSE (0000ms, 0390ms total)
T65E4 046:066 JLINK_IsHalted()  returns FALSE (0000ms, 0390ms total)
T65E4 046:167 JLINK_IsHalted()  returns TRUE (0003ms, 0393ms total)
T65E4 046:170 JLINK_Halt()  returns 0x00 (0000ms, 0390ms total)
T65E4 046:170 JLINK_IsHalted()  returns TRUE (0000ms, 0390ms total)
T65E4 046:170 JLINK_IsHalted()  returns TRUE (0000ms, 0390ms total)
T65E4 046:170 JLINK_IsHalted()  returns TRUE (0000ms, 0390ms total)
T65E4 046:170 JLINK_ReadReg(R15 (PC))  returns 0x080125A4 (0000ms, 0390ms total)
T65E4 046:170 JLINK_ReadReg(XPSR)  returns 0x21000000 (0000ms, 0390ms total)
T65E4 046:170 JLINK_ClrBPEx(BPHandle = 0x00000004)  returns 0x00 (0000ms, 0390ms total)
T65E4 046:170 JLINK_ClrBPEx(BPHandle = 0x00000005)  returns 0x00 (0000ms, 0390ms total)
T65E4 046:170 JLINK_ReadMemU32(0xE000ED30, 0x0001 Items, ...) -- CPU_ReadMem(4 bytes @ 0xE000ED30) - Data: 03 00 00 00  returns 0x01 (0000ms, 0390ms total)
T65E4 046:170 JLINK_ReadMemU32(0xE0001028, 0x0001 Items, ...) -- CPU_ReadMem(4 bytes @ 0xE0001028) - Data: 00 00 00 00  returns 0x01 (0000ms, 0390ms total)
T65E4 046:170 JLINK_ReadMemU32(0xE0001038, 0x0001 Items, ...) -- CPU_ReadMem(4 bytes @ 0xE0001038) - Data: 00 02 00 00  returns 0x01 (0000ms, 0390ms total)
T65E4 046:170 JLINK_ReadMemU32(0xE0001048, 0x0001 Items, ...) -- CPU_ReadMem(4 bytes @ 0xE0001048) - Data: 00 00 00 00  returns 0x01 (0001ms, 0391ms total)
T65E4 046:171 JLINK_ReadMemU32(0xE0001058, 0x0001 Items, ...) -- CPU_ReadMem(4 bytes @ 0xE0001058) - Data: 00 00 00 00  returns 0x01 (0000ms, 0391ms total)
T65E4 046:171 JLINK_ReadReg(R0)  returns 0x2000AAF4 (0000ms, 0391ms total)
T65E4 046:171 JLINK_ReadReg(R1)  returns 0x00000200 (0000ms, 0391ms total)
T65E4 046:171 JLINK_ReadReg(R2)  returns 0x20008880 (0000ms, 0391ms total)
T65E4 046:171 JLINK_ReadReg(R3)  returns 0x00000000 (0000ms, 0391ms total)
T65E4 046:171 JLINK_ReadReg(R4)  returns 0x00000000 (0000ms, 0391ms total)
T65E4 046:171 JLINK_ReadReg(R5)  returns 0x2000AB6C (0000ms, 0391ms total)
T65E4 046:171 JLINK_ReadReg(R6)  returns 0x00000000 (0000ms, 0391ms total)
T65E4 046:171 JLINK_ReadReg(R7)  returns 0x00000000 (0000ms, 0391ms total)
T65E4 046:171 JLINK_ReadReg(R8)  returns 0x00000000 (0000ms, 0391ms total)
T65E4 046:172 JLINK_ReadReg(R9)  returns 0x00000000 (0000ms, 0391ms total)
T65E4 046:172 JLINK_ReadReg(R10)  returns 0x080161C8 (0000ms, 0391ms total)
T65E4 046:172 JLINK_ReadReg(R11)  returns 0x00000000 (0000ms, 0391ms total)
T65E4 046:172 JLINK_ReadReg(R12)  returns 0x00000000 (0000ms, 0391ms total)
T65E4 046:172 JLINK_ReadReg(R13 (SP))  returns 0x2000EBD0 (0000ms, 0391ms total)
T65E4 046:172 JLINK_ReadReg(R14)  returns 0x0800C73F (0000ms, 0391ms total)
T65E4 046:172 JLINK_ReadReg(R15 (PC))  returns 0x080125A4 (0000ms, 0391ms total)
T65E4 046:172 JLINK_ReadReg(XPSR)  returns 0x21000000 (0000ms, 0391ms total)
T65E4 046:172 JLINK_ReadReg(MSP)  returns 0x2000EBD0 (0000ms, 0391ms total)
T65E4 046:172 JLINK_ReadReg(PSP)  returns 0x00000000 (0000ms, 0391ms total)
T65E4 046:172 JLINK_ReadReg(CFBP)  returns 0x04000000 (0000ms, 0391ms total)
T65E4 046:172 JLINK_ReadReg(FPSCR)  returns 0x03000010 (0005ms, 0396ms total)
T65E4 046:177 JLINK_ReadReg(FPS0)  returns 0x420F0000 (0000ms, 0396ms total)
T65E4 046:177 JLINK_ReadReg(FPS1)  returns 0x411CF5C3 (0000ms, 0396ms total)
T65E4 046:177 JLINK_ReadReg(FPS2)  returns 0x3F80A93D (0000ms, 0396ms total)
T65E4 046:177 JLINK_ReadReg(FPS3)  returns 0x00000000 (0000ms, 0396ms total)
T65E4 046:177 JLINK_ReadReg(FPS4)  returns 0x00000000 (0000ms, 0396ms total)
T65E4 046:177 JLINK_ReadReg(FPS5)  returns 0x00000000 (0000ms, 0396ms total)
T65E4 046:177 JLINK_ReadReg(FPS6)  returns 0x00000000 (0000ms, 0396ms total)
T65E4 046:177 JLINK_ReadReg(FPS7)  returns 0x00000000 (0000ms, 0396ms total)
T65E4 046:177 JLINK_ReadReg(FPS8)  returns 0x00000000 (0000ms, 0396ms total)
T65E4 046:177 JLINK_ReadReg(FPS9)  returns 0x00000000 (0000ms, 0396ms total)
T65E4 046:177 JLINK_ReadReg(FPS10)  returns 0x00000000 (0000ms, 0396ms total)
T65E4 046:177 JLINK_ReadReg(FPS11)  returns 0x00000000 (0000ms, 0396ms total)
T65E4 046:177 JLINK_ReadReg(FPS12)  returns 0x00000000 (0000ms, 0396ms total)
T65E4 046:177 JLINK_ReadReg(FPS13)  returns 0x00000000 (0000ms, 0396ms total)
T65E4 046:177 JLINK_ReadReg(FPS14)  returns 0x00000000 (0000ms, 0396ms total)
T65E4 046:177 JLINK_ReadReg(FPS15)  returns 0x00000000 (0000ms, 0396ms total)
T65E4 046:177 JLINK_ReadReg(FPS16)  returns 0x00000000 (0000ms, 0396ms total)
T65E4 046:177 JLINK_ReadReg(FPS17)  returns 0x00000000 (0000ms, 0396ms total)
T65E4 046:177 JLINK_ReadReg(FPS18)  returns 0x00000000 (0000ms, 0396ms total)
T65E4 046:177 JLINK_ReadReg(FPS19)  returns 0x00000000 (0000ms, 0396ms total)
T65E4 046:177 JLINK_ReadReg(FPS20)  returns 0x00000000 (0000ms, 0396ms total)
T65E4 046:177 JLINK_ReadReg(FPS21)  returns 0x00000000 (0000ms, 0396ms total)
T65E4 046:177 JLINK_ReadReg(FPS22)  returns 0x00000000 (0000ms, 0396ms total)
T65E4 046:177 JLINK_ReadReg(FPS23)  returns 0x00000000 (0000ms, 0396ms total)
T65E4 046:177 JLINK_ReadReg(FPS24)  returns 0x00000000 (0000ms, 0396ms total)
T65E4 046:177 JLINK_ReadReg(FPS25)  returns 0x00000000 (0000ms, 0396ms total)
T65E4 046:177 JLINK_ReadReg(FPS26)  returns 0x00000000 (0000ms, 0396ms total)
T65E4 046:177 JLINK_ReadReg(FPS27)  returns 0x00000000 (0000ms, 0396ms total)
T65E4 046:177 JLINK_ReadReg(FPS28)  returns 0x00000000 (0000ms, 0396ms total)
T65E4 046:177 JLINK_ReadReg(FPS29)  returns 0x00000000 (0000ms, 0396ms total)
T65E4 046:177 JLINK_ReadReg(FPS30)  returns 0x00000000 (0000ms, 0396ms total)
T65E4 046:177 JLINK_ReadReg(FPS31)  returns 0x00000000 (0000ms, 0396ms total)
T65E4 046:177 JLINK_ReadMem (0x2000004C, 0x0004 Bytes, ...) -- CPU_ReadMem(64 bytes @ 0x20000040) -- Updating C cache (64 bytes @ 0x20000040) -- Read from C cache (4 bytes @ 0x2000004C) - Data: 00 00 00 00  returns 0x00 (0001ms, 0397ms total)
T4504 046:178 JLINK_ReadMemU32(0xE0001004, 0x0001 Items, ...) -- CPU_ReadMem(4 bytes @ 0xE0001004) - Data: 9F 51 43 02  returns 0x01 (0001ms, 0398ms total)
T4504 046:182 JLINK_ReadMem (0x080125A0, 0x003C Bytes, ...) -- CPU_ReadMem(128 bytes @ 0x08012580) -- Updating C cache (128 bytes @ 0x08012580) -- Read from C cache (60 bytes @ 0x080125A0) - Data: FA F7 BE F8 F8 F7 3E F9 00 F0 09 F8 00 BF FE E7 ...  returns 0x00 (0002ms, 0400ms total)
T65E4 047:078 JLINK_Step() -- Read from C cache (2 bytes @ 0x080125A4) -- Read from C cache (2 bytes @ 0x080125A6) -- Simulated  returns 0x00 (0000ms, 0400ms total)
T65E4 047:078 JLINK_ReadReg(R15 (PC))  returns 0x0800A824 (0000ms, 0400ms total)
T65E4 047:078 JLINK_ReadReg(XPSR)  returns 0x21000000 (0000ms, 0400ms total)
T65E4 047:079 JLINK_ReadReg(R0)  returns 0x2000AAF4 (0000ms, 0400ms total)
T65E4 047:079 JLINK_ReadReg(R1)  returns 0x00000200 (0000ms, 0400ms total)
T65E4 047:079 JLINK_ReadReg(R2)  returns 0x20008880 (0000ms, 0400ms total)
T65E4 047:079 JLINK_ReadReg(R3)  returns 0x00000000 (0000ms, 0400ms total)
T65E4 047:079 JLINK_ReadReg(R4)  returns 0x00000000 (0000ms, 0400ms total)
T65E4 047:079 JLINK_ReadReg(R5)  returns 0x2000AB6C (0000ms, 0400ms total)
T65E4 047:079 JLINK_ReadReg(R6)  returns 0x00000000 (0000ms, 0400ms total)
T65E4 047:079 JLINK_ReadReg(R7)  returns 0x00000000 (0000ms, 0400ms total)
T65E4 047:079 JLINK_ReadReg(R8)  returns 0x00000000 (0000ms, 0400ms total)
T65E4 047:079 JLINK_ReadReg(R9)  returns 0x00000000 (0000ms, 0400ms total)
T65E4 047:079 JLINK_ReadReg(R10)  returns 0x080161C8 (0000ms, 0400ms total)
T65E4 047:079 JLINK_ReadReg(R11)  returns 0x00000000 (0000ms, 0400ms total)
T65E4 047:079 JLINK_ReadReg(R12)  returns 0x00000000 (0000ms, 0400ms total)
T65E4 047:079 JLINK_ReadReg(R13 (SP))  returns 0x2000EBD0 (0000ms, 0400ms total)
T65E4 047:079 JLINK_ReadReg(R14)  returns 0x080125A9 (0000ms, 0400ms total)
T65E4 047:079 JLINK_ReadReg(R15 (PC))  returns 0x0800A824 (0000ms, 0400ms total)
T65E4 047:079 JLINK_ReadReg(XPSR)  returns 0x21000000 (0000ms, 0400ms total)
T65E4 047:079 JLINK_ReadReg(MSP)  returns 0x2000EBD0 (0000ms, 0400ms total)
T65E4 047:079 JLINK_ReadReg(PSP)  returns 0x00000000 (0000ms, 0400ms total)
T65E4 047:079 JLINK_ReadReg(CFBP)  returns 0x04000000 (0000ms, 0400ms total)
T65E4 047:079 JLINK_ReadReg(FPSCR)  returns 0x03000010 (0000ms, 0400ms total)
T65E4 047:079 JLINK_ReadReg(FPS0)  returns 0x420F0000 (0000ms, 0400ms total)
T65E4 047:079 JLINK_ReadReg(FPS1)  returns 0x411CF5C3 (0000ms, 0400ms total)
T65E4 047:079 JLINK_ReadReg(FPS2)  returns 0x3F80A93D (0000ms, 0400ms total)
T65E4 047:079 JLINK_ReadReg(FPS3)  returns 0x00000000 (0000ms, 0400ms total)
T65E4 047:079 JLINK_ReadReg(FPS4)  returns 0x00000000 (0000ms, 0400ms total)
T65E4 047:079 JLINK_ReadReg(FPS5)  returns 0x00000000 (0000ms, 0400ms total)
T65E4 047:079 JLINK_ReadReg(FPS6)  returns 0x00000000 (0000ms, 0400ms total)
T65E4 047:079 JLINK_ReadReg(FPS7)  returns 0x00000000 (0000ms, 0400ms total)
T65E4 047:079 JLINK_ReadReg(FPS8)  returns 0x00000000 (0000ms, 0400ms total)
T65E4 047:079 JLINK_ReadReg(FPS9)  returns 0x00000000 (0000ms, 0400ms total)
T65E4 047:079 JLINK_ReadReg(FPS10)  returns 0x00000000 (0000ms, 0400ms total)
T65E4 047:079 JLINK_ReadReg(FPS11)  returns 0x00000000 (0000ms, 0400ms total)
T65E4 047:079 JLINK_ReadReg(FPS12)  returns 0x00000000 (0000ms, 0400ms total)
T65E4 047:079 JLINK_ReadReg(FPS13)  returns 0x00000000 (0000ms, 0400ms total)
T65E4 047:079 JLINK_ReadReg(FPS14)  returns 0x00000000 (0000ms, 0400ms total)
T65E4 047:079 JLINK_ReadReg(FPS15)  returns 0x00000000 (0000ms, 0400ms total)
T65E4 047:079 JLINK_ReadReg(FPS16)  returns 0x00000000 (0000ms, 0400ms total)
T65E4 047:079 JLINK_ReadReg(FPS17)  returns 0x00000000 (0000ms, 0400ms total)
T65E4 047:079 JLINK_ReadReg(FPS18)  returns 0x00000000 (0000ms, 0400ms total)
T65E4 047:079 JLINK_ReadReg(FPS19)  returns 0x00000000 (0000ms, 0400ms total)
T65E4 047:079 JLINK_ReadReg(FPS20)  returns 0x00000000 (0000ms, 0400ms total)
T65E4 047:079 JLINK_ReadReg(FPS21)  returns 0x00000000 (0000ms, 0400ms total)
T65E4 047:079 JLINK_ReadReg(FPS22)  returns 0x00000000 (0000ms, 0400ms total)
T65E4 047:079 JLINK_ReadReg(FPS23)  returns 0x00000000 (0000ms, 0400ms total)
T65E4 047:079 JLINK_ReadReg(FPS24)  returns 0x00000000 (0000ms, 0400ms total)
T65E4 047:079 JLINK_ReadReg(FPS25)  returns 0x00000000 (0000ms, 0400ms total)
T65E4 047:079 JLINK_ReadReg(FPS26)  returns 0x00000000 (0000ms, 0400ms total)
T65E4 047:079 JLINK_ReadReg(FPS27)  returns 0x00000000 (0000ms, 0400ms total)
T65E4 047:079 JLINK_ReadReg(FPS28)  returns 0x00000000 (0000ms, 0400ms total)
T65E4 047:079 JLINK_ReadReg(FPS29)  returns 0x00000000 (0000ms, 0400ms total)
T65E4 047:079 JLINK_ReadReg(FPS30)  returns 0x00000000 (0000ms, 0400ms total)
T65E4 047:079 JLINK_ReadReg(FPS31)  returns 0x00000000 (0000ms, 0400ms total)
